T56E8 000:029.005   SEGGER J-Link V7.22b Log File
T56E8 000:029.163   DLL Compiled: Jun 17 2021 17:22:49
T56E8 000:029.171   Logging started @ 2024-06-21 02:29
T56E8 000:029.176 - 29.179ms
T56E8 000:029.189 JLINK_SetWarnOutHandler(...)
T56E8 000:029.196 - 0.010ms
T56E8 000:029.204 JLINK_OpenEx(...)
T56E8 000:030.068   Firmware: J-Link ARM-OB STM32 compiled Aug 22 2012 19:52:04
T56E8 000:030.303   Firmware: J-Link ARM-OB STM32 compiled Aug 22 2012 19:52:04
T56E8 000:031.712   Hardware: V7.00
T56E8 000:031.724   S/N: 20090929
T56E8 000:031.733   OEM: SEGGER
T56E8 000:031.742   Feature(s): RDI,FlashDL,FlashBP,JFlash,GDBFull
T56E8 000:032.468   TELNET listener socket opened on port 19021
T56E8 000:032.546   WEBSRV Starting webserver
T56E8 000:032.672   WEBSRV Webserver running on local port 19080
T56E8 000:032.683 - 3.482ms returns "O.K."
T56E8 000:032.699 JLINK_GetEmuCaps()
T56E8 000:032.705 - 0.009ms returns 0x88EA5833
T56E8 000:032.716 JLINK_TIF_GetAvailable(...)
T56E8 000:032.828 - 0.118ms
T56E8 000:032.842 JLINK_SetErrorOutHandler(...)
T56E8 000:032.848 - 0.009ms
T56E8 000:032.872 JLINK_ExecCommand("ProjectFile = "D:\Downloads\项目22：STM32F1智能门锁核心板版V1.2\源代码\智能门禁系统源代码\USER\JLinkSettings.ini"", ...). 
T56E8 000:042.517   Device "CORTEX-M3" selected.
T56E8 000:042.905 - 10.040ms returns 0x00
T56E8 000:045.414 JLINK_ExecCommand("Device = STM32F103C8", ...). 
T56E8 000:047.752   Device "STM32F103C8" selected.
T56E8 000:048.032 - 2.610ms returns 0x00
T56E8 000:048.050 JLINK_GetHardwareVersion()
T56E8 000:048.056 - 0.009ms returns 70000
T56E8 000:048.064 JLINK_GetDLLVersion()
T56E8 000:048.070 - 0.008ms returns 72202
T56E8 000:048.077 JLINK_GetOEMString(...)
T56E8 000:048.084 JLINK_GetFirmwareString(...)
T56E8 000:048.093 - 0.012ms
T56E8 000:054.520 JLINK_GetDLLVersion()
T56E8 000:054.531 - 0.014ms returns 72202
T56E8 000:054.540 JLINK_GetCompileDateTime()
T56E8 000:054.545 - 0.008ms
T56E8 000:056.141 JLINK_GetFirmwareString(...)
T56E8 000:056.151 - 0.013ms
T56E8 000:057.750 JLINK_GetHardwareVersion()
T56E8 000:057.760 - 0.013ms returns 70000
T56E8 000:059.371 JLINK_GetSN()
T56E8 000:059.382 - 0.013ms returns 20090929
T56E8 000:060.995 JLINK_GetOEMString(...)
T56E8 000:064.635 JLINK_TIF_Select(JLINKARM_TIF_SWD)
T56E8 000:064.934 - 0.304ms returns 0x00
T56E8 000:064.946 JLINK_HasError()
T56E8 000:064.966 JLINK_SetSpeed(5000)
T56E8 000:065.026 - 0.065ms
T56E8 000:065.037 JLINK_GetId()
T56E8 000:066.760   InitTarget() start
T56E8 000:066.774    J-Link Script File: Executing InitTarget()
T56E8 000:076.075   InitTarget() end
T56E8 000:078.642   Found SW-DP with ID 0x2BA01477
T56E8 000:081.371   Old FW that does not support reading DPIDR via DAP jobs
T56E8 000:085.755   DPv0 detected
T56E8 000:087.349   Scanning AP map to find all available APs
T56E8 000:090.928   AP[1]: Stopped AP scan as end of AP map has been reached
T56E8 000:092.616   AP[0]: AHB-AP (IDR: 0x24770011)
T56E8 000:094.880   Iterating through AP map to find AHB-AP to use
T56E8 000:099.831   AP[0]: Core found
T56E8 000:101.487   AP[0]: AHB-AP ROM base: 0xE00FF000
T56E8 000:104.619   CPUID register: 0x412FC231. Implementer code: 0x41 (ARM)
T56E8 000:106.272   Found Cortex-M3 r2p1, Little endian.
T56E8 000:207.377   -- Max. mem block: 0x00002C18
T56E8 000:207.530   CPU_ReadMem(4 bytes @ 0xE000EDF0)
T56E8 000:207.994   CPU_WriteMem(4 bytes @ 0xE000EDF0)
T56E8 000:208.402   CPU_ReadMem(4 bytes @ 0xE0002000)
T56E8 000:210.957   FPUnit: 6 code (BP) slots and 2 literal slots
T56E8 000:210.975   CPU_ReadMem(4 bytes @ 0xE000EDFC)
T56E8 000:211.378   CPU_WriteMem(4 bytes @ 0xE000EDFC)
T56E8 000:211.782   CPU_ReadMem(4 bytes @ 0xE0001000)
T56E8 000:212.161   CPU_WriteMem(4 bytes @ 0xE0001000)
T56E8 000:212.561   CPU_ReadMem(4 bytes @ 0xE000ED88)
T56E8 000:212.945   CPU_WriteMem(4 bytes @ 0xE000ED88)
T56E8 000:213.376   CPU_ReadMem(4 bytes @ 0xE000ED88)
T56E8 000:213.768   CPU_WriteMem(4 bytes @ 0xE000ED88)
T56E8 000:216.105   CoreSight components:
T56E8 000:217.992   ROMTbl[0] @ E00FF000
T56E8 000:218.139   CPU_ReadMem(64 bytes @ 0xE00FF000)
T56E8 000:219.141   CPU_ReadMem(32 bytes @ 0xE000EFE0)
T56E8 000:221.807   ROMTbl[0][0]: E000E000, CID: B105E00D, PID: 000BB000 SCS
T56E8 000:221.824   CPU_ReadMem(32 bytes @ 0xE0001FE0)
T56E8 000:224.428   ROMTbl[0][1]: E0001000, CID: B105E00D, PID: 003BB002 DWT
T56E8 000:224.445   CPU_ReadMem(32 bytes @ 0xE0002FE0)
T56E8 000:227.018   ROMTbl[0][2]: E0002000, CID: B105E00D, PID: 002BB003 FPB
T56E8 000:227.035   CPU_ReadMem(32 bytes @ 0xE0000FE0)
T56E8 000:229.743   ROMTbl[0][3]: E0000000, CID: B105E00D, PID: 003BB001 ITM
T56E8 000:229.767   CPU_ReadMem(32 bytes @ 0xE0040FE0)
T56E8 000:232.442   ROMTbl[0][4]: E0040000, CID: B105900D, PID: 003BB923 TPIU-Lite
T56E8 000:232.802 - 167.771ms returns 0x2BA01477
T56E8 000:232.820 JLINK_GetDLLVersion()
T56E8 000:232.827 - 0.010ms returns 72202
T56E8 000:232.837 JLINK_CORE_GetFound()
T56E8 000:232.844 - 0.010ms returns 0x30000FF
T56E8 000:232.854 JLINK_GetDebugInfo(0x100 = JLINKARM_ROM_TABLE_ADDR_INDEX)
T56E8 000:232.862   Value=0xE00FF000
T56E8 000:232.871 - 0.020ms returns 0
T56E8 000:235.048 JLINK_GetDebugInfo(0x100 = JLINKARM_ROM_TABLE_ADDR_INDEX)
T56E8 000:235.070   Value=0xE00FF000
T56E8 000:235.079 - 0.033ms returns 0
T56E8 000:235.086 JLINK_GetDebugInfo(0x101 = JLINKARM_DEBUG_INFO_ETM_ADDR_INDEX)
T56E8 000:235.092   Value=0x00000000
T56E8 000:235.100 - 0.016ms returns 0
T56E8 000:235.119 JLINK_ReadMemEx(0xE0041FF0, 0x10 Bytes, Flags = 0x02000004)
T56E8 000:235.154   CPU_ReadMem(16 bytes @ 0xE0041FF0)
T56E8 000:235.683   Data:  00 00 00 00 00 00 00 00 00 00 00 00 00 00 00 00
T56E8 000:235.694 - 0.577ms returns 16 (0x10)
T56E8 000:235.703 JLINK_GetDebugInfo(0x102 = JLINKARM_DEBUG_INFO_MTB_ADDR_INDEX)
T56E8 000:235.710   Value=0x00000000
T56E8 000:235.718 - 0.017ms returns 0
T56E8 000:235.725 JLINK_GetDebugInfo(0x103 = JLINKARM_DEBUG_INFO_TPIU_ADDR_INDEX)
T56E8 000:235.732   Value=0xE0040000
T56E8 000:235.740 - 0.017ms returns 0
T56E8 000:235.747 JLINK_GetDebugInfo(0x104 = JLINKARM_DEBUG_INFO_ITM_ADDR_INDEX)
T56E8 000:235.753   Value=0xE0000000
T56E8 000:235.762 - 0.018ms returns 0
T56E8 000:235.769 JLINK_GetDebugInfo(0x105 = JLINKARM_DEBUG_INFO_DWT_ADDR_INDEX)
T56E8 000:235.775   Value=0xE0001000
T56E8 000:235.783 - 0.016ms returns 0
T56E8 000:235.790 JLINK_GetDebugInfo(0x106 = JLINKARM_DEBUG_INFO_FPB_ADDR_INDEX)
T56E8 000:235.796   Value=0xE0002000
T56E8 000:235.804 - 0.017ms returns 0
T56E8 000:235.811 JLINK_GetDebugInfo(0x107 = JLINKARM_DEBUG_INFO_NVIC_ADDR_INDEX)
T56E8 000:235.817   Value=0xE000E000
T56E8 000:235.825 - 0.016ms returns 0
T56E8 000:235.832 JLINK_GetDebugInfo(0x10C = JLINKARM_DEBUG_INFO_DBG_ADDR_INDEX)
T56E8 000:235.838   Value=0xE000EDF0
T56E8 000:235.846 - 0.016ms returns 0
T56E8 000:235.853 JLINK_GetDebugInfo(0x01 = Unknown)
T56E8 000:235.859   Value=0x00000000
T56E8 000:235.867 - 0.017ms returns 0
T56E8 000:235.874 JLINK_ReadMemU32(0xE000ED00, 0x1 Items)
T56E8 000:235.884   CPU_ReadMem(4 bytes @ 0xE000ED00)
T56E8 000:236.268   Data:  31 C2 2F 41
T56E8 000:236.278   Debug reg: CPUID
T56E8 000:236.287 - 0.415ms returns 1 (0x1)
T56E8 000:236.295 JLINK_GetDebugInfo(0x10F = JLINKARM_DEBUG_INFO_HAS_CORTEX_M_SECURITY_EXT_INDEX)
T56E8 000:236.301   Value=0x00000000
T56E8 000:236.309 - 0.016ms returns 0
T56E8 000:236.317 JLINK_HasError()
T56E8 000:236.325 JLINK_SetResetType(JLINKARM_CM3_RESET_TYPE_NORMAL)
T56E8 000:236.331 - 0.008ms returns JLINKARM_CM3_RESET_TYPE_NORMAL
T56E8 000:236.337 JLINK_Reset()
T56E8 000:236.351   CPU is running
T56E8 000:236.360   CPU_WriteMem(4 bytes @ 0xE000EDF0)
T56E8 000:236.763   CPU is running
T56E8 000:236.773   CPU_WriteMem(4 bytes @ 0xE000EDFC)
T56E8 000:239.181   Reset: Halt core after reset via DEMCR.VC_CORERESET.
T56E8 000:241.236   Reset: Reset device via AIRCR.SYSRESETREQ.
T56E8 000:241.254   CPU is running
T56E8 000:241.267   CPU_WriteMem(4 bytes @ 0xE000ED0C)
T56E8 000:294.380   CPU_ReadMem(4 bytes @ 0xE000EDF0)
T56E8 000:294.845   CPU_ReadMem(4 bytes @ 0xE000EDF0)
T56E8 000:295.224   CPU is running
T56E8 000:295.310   CPU_WriteMem(4 bytes @ 0xE000EDF0)
T56E8 000:295.712   CPU is running
T56E8 000:295.723   CPU_WriteMem(4 bytes @ 0xE000EDFC)
T56E8 000:302.033   CPU_ReadMem(4 bytes @ 0xE000EDF0)
T56E8 000:305.452   CPU_WriteMem(4 bytes @ 0xE0002000)
T56E8 000:305.860   CPU_ReadMem(4 bytes @ 0xE000EDFC)
T56E8 000:306.240   CPU_ReadMem(4 bytes @ 0xE0001000)
T56E8 000:306.621 - 70.288ms
T56E8 000:306.639 JLINK_Halt()
T56E8 000:306.646 - 0.010ms returns 0x00
T56E8 000:306.657 JLINK_ReadMemU32(0xE000EDF0, 0x1 Items)
T56E8 000:306.670   CPU_ReadMem(4 bytes @ 0xE000EDF0)
T56E8 000:307.056   Data:  03 00 03 00
T56E8 000:307.073   Debug reg: DHCSR
T56E8 000:307.087 - 0.434ms returns 1 (0x1)
T56E8 000:307.103 JLINK_WriteU32_64(0xE000EDF0, 0xA05F0003)
T56E8 000:307.117   Debug reg: DHCSR
T56E8 000:307.391   CPU_WriteMem(4 bytes @ 0xE000EDF0)
T56E8 000:307.818 - 0.721ms returns 0 (0x00000000)
T56E8 000:307.837 JLINK_WriteU32_64(0xE000EDFC, 0x01000000)
T56E8 000:307.847   Debug reg: DEMCR
T56E8 000:307.866   CPU_WriteMem(4 bytes @ 0xE000EDFC)
T56E8 000:308.277 - 0.444ms returns 0 (0x00000000)
T56E8 000:315.569 JLINK_GetHWStatus(...)
T56E8 000:315.690 - 0.129ms returns 0
T56E8 000:320.695 JLINK_GetNumBPUnits(Type = 0xFFFFFF00)
T56E8 000:320.707 - 0.014ms returns 0x06
T56E8 000:320.714 JLINK_GetNumBPUnits(Type = 0xF0)
T56E8 000:320.720 - 0.008ms returns 0x2000
T56E8 000:320.728 JLINK_GetNumWPUnits()
T56E8 000:320.733 - 0.008ms returns 4
T56E8 000:325.491 JLINK_GetSpeed()
T56E8 000:325.502 - 0.014ms returns 4000
T56E8 000:328.723 JLINK_ReadMemU32(0xE000E004, 0x1 Items)
T56E8 000:328.742   CPU_ReadMem(4 bytes @ 0xE000E004)
T56E8 000:329.248   Data:  01 00 00 00
T56E8 000:329.261 - 0.541ms returns 1 (0x1)
T56E8 000:329.271 JLINK_ReadMemU32(0xE000E004, 0x1 Items)
T56E8 000:329.281   CPU_ReadMem(4 bytes @ 0xE000E004)
T56E8 000:329.682   Data:  01 00 00 00
T56E8 000:329.692 - 0.424ms returns 1 (0x1)
T56E8 000:329.701 JLINK_WriteMemEx(0xE0001000, 0x0000001C Bytes, Flags = 0x02000004)
T56E8 000:329.708   Data:  01 00 00 00 00 00 00 00 00 00 00 00 00 00 00 00 ...
T56E8 000:329.722   CPU_WriteMem(28 bytes @ 0xE0001000)
T56E8 000:330.489 - 0.792ms returns 0x1C
T56E8 000:330.503 JLINK_Halt()
T56E8 000:330.510 - 0.009ms returns 0x00
T56E8 000:330.517 JLINK_IsHalted()
T56E8 000:330.523 - 0.009ms returns TRUE
T56E8 000:333.107 JLINK_WriteMem(0x20000000, 0x164 Bytes, ...)
T56E8 000:333.116   Data:  00 BE 0A E0 0D 78 2D 06 68 40 08 24 40 00 00 D3 ...
T56E8 000:333.300   CPU_WriteMem(356 bytes @ 0x20000000)
T56E8 000:337.898 - 4.799ms returns 0x164
T56E8 000:337.941 JLINK_HasError()
T56E8 000:337.952 JLINK_WriteReg(R0, 0x08000000)
T56E8 000:337.963 - 0.014ms returns 0
T56E8 000:337.972 JLINK_WriteReg(R1, 0x00B71B00)
T56E8 000:337.980 - 0.011ms returns 0
T56E8 000:337.989 JLINK_WriteReg(R2, 0x00000001)
T56E8 000:337.996 - 0.010ms returns 0
T56E8 000:338.005 JLINK_WriteReg(R3, 0x00000000)
T56E8 000:338.012 - 0.010ms returns 0
T56E8 000:338.020 JLINK_WriteReg(R4, 0x00000000)
T56E8 000:338.027 - 0.010ms returns 0
T56E8 000:338.037 JLINK_WriteReg(R5, 0x00000000)
T56E8 000:338.045 - 0.010ms returns 0
T56E8 000:338.053 JLINK_WriteReg(R6, 0x00000000)
T56E8 000:338.060 - 0.010ms returns 0
T56E8 000:338.069 JLINK_WriteReg(R7, 0x00000000)
T56E8 000:338.076 - 0.010ms returns 0
T56E8 000:338.084 JLINK_WriteReg(R8, 0x00000000)
T56E8 000:338.105 - 0.024ms returns 0
T56E8 000:338.114 JLINK_WriteReg(R9, 0x20000160)
T56E8 000:338.121 - 0.010ms returns 0
T56E8 000:338.130 JLINK_WriteReg(R10, 0x00000000)
T56E8 000:338.137 - 0.010ms returns 0
T56E8 000:338.146 JLINK_WriteReg(R11, 0x00000000)
T56E8 000:338.153 - 0.011ms returns 0
T56E8 000:338.162 JLINK_WriteReg(R12, 0x00000000)
T56E8 000:338.169 - 0.010ms returns 0
T56E8 000:338.177 JLINK_WriteReg(R13 (SP), 0x20001000)
T56E8 000:338.183 - 0.009ms returns 0
T56E8 000:338.190 JLINK_WriteReg(R14, 0x20000001)
T56E8 000:338.196 - 0.008ms returns 0
T56E8 000:338.203 JLINK_WriteReg(R15 (PC), 0x20000038)
T56E8 000:338.214 - 0.013ms returns 0
T56E8 000:338.226 JLINK_WriteReg(XPSR, 0x01000000)
T56E8 000:338.289 - 0.066ms returns 0
T56E8 000:338.297 JLINK_WriteReg(MSP, 0x20001000)
T56E8 000:338.303 - 0.009ms returns 0
T56E8 000:338.310 JLINK_WriteReg(PSP, 0x20001000)
T56E8 000:338.316 - 0.009ms returns 0
T56E8 000:338.323 JLINK_WriteReg(CFBP, 0x00000000)
T56E8 000:338.329 - 0.008ms returns 0
T56E8 000:338.336 JLINK_SetBPEx(Addr = 0x20000000, Type = 0xFFFFFFF2)
T56E8 000:338.346   CPU_ReadMem(2 bytes @ 0x20000000)
T56E8 000:338.770 - 0.438ms returns 0x00000001
T56E8 000:338.781 JLINK_Go()
T56E8 000:338.789   CPU_WriteMem(2 bytes @ 0x20000000)
T56E8 000:339.199   CPU_ReadMem(4 bytes @ 0xE0001000)
T56E8 000:339.812   CPU_WriteMem(4 bytes @ 0xE0002008)
T56E8 000:339.822   CPU_WriteMem(4 bytes @ 0xE000200C)
T56E8 000:339.830   CPU_WriteMem(4 bytes @ 0xE0002010)
T56E8 000:339.839   CPU_WriteMem(4 bytes @ 0xE0002014)
T56E8 000:339.847   CPU_WriteMem(4 bytes @ 0xE0002018)
T56E8 000:339.856   CPU_WriteMem(4 bytes @ 0xE000201C)
T56E8 000:342.132   CPU_WriteMem(4 bytes @ 0xE0001004)
T56E8 000:345.385 - 6.612ms
T56E8 000:345.401 JLINK_IsHalted()
T56E8 000:348.463   CPU_ReadMem(2 bytes @ 0x20000000)
T56E8 000:348.863 - 3.474ms returns TRUE
T56E8 000:348.887 JLINK_ReadReg(R15 (PC))
T56E8 000:348.902 - 0.019ms returns 0x20000000
T56E8 000:348.915 JLINK_ClrBPEx(BPHandle = 0x00000001)
T56E8 000:348.926 - 0.016ms returns 0x00
T56E8 000:348.939 JLINK_ReadReg(R0)
T56E8 000:348.949 - 0.015ms returns 0x00000000
T56E8 000:349.660 JLINK_HasError()
T56E8 000:349.672 JLINK_WriteReg(R0, 0x08000000)
T56E8 000:349.680 - 0.011ms returns 0
T56E8 000:349.688 JLINK_WriteReg(R1, 0x00B71B00)
T56E8 000:349.694 - 0.009ms returns 0
T56E8 000:349.701 JLINK_WriteReg(R2, 0x00000001)
T56E8 000:349.707 - 0.009ms returns 0
T56E8 000:349.715 JLINK_WriteReg(R3, 0x00000000)
T56E8 000:349.721 - 0.009ms returns 0
T56E8 000:349.728 JLINK_WriteReg(R4, 0x00000000)
T56E8 000:349.734 - 0.008ms returns 0
T56E8 000:349.741 JLINK_WriteReg(R5, 0x00000000)
T56E8 000:349.747 - 0.008ms returns 0
T56E8 000:349.754 JLINK_WriteReg(R6, 0x00000000)
T56E8 000:349.760 - 0.008ms returns 0
T56E8 000:349.767 JLINK_WriteReg(R7, 0x00000000)
T56E8 000:349.773 - 0.008ms returns 0
T56E8 000:349.780 JLINK_WriteReg(R8, 0x00000000)
T56E8 000:349.786 - 0.008ms returns 0
T56E8 000:349.793 JLINK_WriteReg(R9, 0x20000160)
T56E8 000:349.799 - 0.008ms returns 0
T56E8 000:349.805 JLINK_WriteReg(R10, 0x00000000)
T56E8 000:349.811 - 0.008ms returns 0
T56E8 000:349.818 JLINK_WriteReg(R11, 0x00000000)
T56E8 000:349.824 - 0.008ms returns 0
T56E8 000:349.831 JLINK_WriteReg(R12, 0x00000000)
T56E8 000:349.837 - 0.008ms returns 0
T56E8 000:349.844 JLINK_WriteReg(R13 (SP), 0x20001000)
T56E8 000:349.851 - 0.009ms returns 0
T56E8 000:349.858 JLINK_WriteReg(R14, 0x20000001)
T56E8 000:349.864 - 0.008ms returns 0
T56E8 000:349.871 JLINK_WriteReg(R15 (PC), 0x2000007C)
T56E8 000:349.877 - 0.008ms returns 0
T56E8 000:349.884 JLINK_WriteReg(XPSR, 0x01000000)
T56E8 000:349.890 - 0.008ms returns 0
T56E8 000:349.896 JLINK_WriteReg(MSP, 0x20001000)
T56E8 000:349.902 - 0.008ms returns 0
T56E8 000:349.909 JLINK_WriteReg(PSP, 0x20001000)
T56E8 000:349.915 - 0.008ms returns 0
T56E8 000:349.922 JLINK_WriteReg(CFBP, 0x00000000)
T56E8 000:349.928 - 0.008ms returns 0
T56E8 000:349.935 JLINK_SetBPEx(Addr = 0x20000000, Type = 0xFFFFFFF2)
T56E8 000:349.942 - 0.009ms returns 0x00000002
T56E8 000:349.949 JLINK_Go()
T56E8 000:349.961   CPU_ReadMem(4 bytes @ 0xE0001000)
T56E8 000:353.237 - 3.297ms
T56E8 000:353.257 JLINK_IsHalted()
T56E8 000:353.625 - 0.375ms returns FALSE
T56E8 000:353.641 JLINK_HasError()
T56E8 000:362.047 JLINK_IsHalted()
T56E8 000:365.059   CPU_ReadMem(2 bytes @ 0x20000000)
T56E8 000:365.464 - 3.424ms returns TRUE
T56E8 000:365.482 JLINK_ReadReg(R15 (PC))
T56E8 000:365.495 - 0.018ms returns 0x20000000
T56E8 000:365.508 JLINK_ClrBPEx(BPHandle = 0x00000002)
T56E8 000:365.518 - 0.015ms returns 0x00
T56E8 000:365.530 JLINK_ReadReg(R0)
T56E8 000:365.541 - 0.015ms returns 0x00000000
T56E8 000:417.373 JLINK_HasError()
T56E8 000:417.478 JLINK_WriteReg(R0, 0x00000001)
T56E8 000:417.491 - 0.016ms returns 0
T56E8 000:417.501 JLINK_WriteReg(R1, 0x00B71B00)
T56E8 000:417.508 - 0.011ms returns 0
T56E8 000:417.517 JLINK_WriteReg(R2, 0x00000001)
T56E8 000:417.524 - 0.010ms returns 0
T56E8 000:417.532 JLINK_WriteReg(R3, 0x00000000)
T56E8 000:417.539 - 0.010ms returns 0
T56E8 000:417.548 JLINK_WriteReg(R4, 0x00000000)
T56E8 000:417.554 - 0.010ms returns 0
T56E8 000:417.563 JLINK_WriteReg(R5, 0x00000000)
T56E8 000:417.570 - 0.010ms returns 0
T56E8 000:417.578 JLINK_WriteReg(R6, 0x00000000)
T56E8 000:417.585 - 0.010ms returns 0
T56E8 000:417.593 JLINK_WriteReg(R7, 0x00000000)
T56E8 000:417.600 - 0.010ms returns 0
T56E8 000:417.608 JLINK_WriteReg(R8, 0x00000000)
T56E8 000:417.615 - 0.010ms returns 0
T56E8 000:417.624 JLINK_WriteReg(R9, 0x20000160)
T56E8 000:417.631 - 0.010ms returns 0
T56E8 000:417.639 JLINK_WriteReg(R10, 0x00000000)
T56E8 000:417.645 - 0.010ms returns 0
T56E8 000:417.654 JLINK_WriteReg(R11, 0x00000000)
T56E8 000:417.661 - 0.010ms returns 0
T56E8 000:417.669 JLINK_WriteReg(R12, 0x00000000)
T56E8 000:417.676 - 0.010ms returns 0
T56E8 000:417.684 JLINK_WriteReg(R13 (SP), 0x20001000)
T56E8 000:417.692 - 0.011ms returns 0
T56E8 000:417.700 JLINK_WriteReg(R14, 0x20000001)
T56E8 000:417.707 - 0.010ms returns 0
T56E8 000:417.716 JLINK_WriteReg(R15 (PC), 0x2000006A)
T56E8 000:417.723 - 0.010ms returns 0
T56E8 000:417.731 JLINK_WriteReg(XPSR, 0x01000000)
T56E8 000:417.738 - 0.010ms returns 0
T56E8 000:417.746 JLINK_WriteReg(MSP, 0x20001000)
T56E8 000:417.753 - 0.010ms returns 0
T56E8 000:417.762 JLINK_WriteReg(PSP, 0x20001000)
T56E8 000:417.768 - 0.010ms returns 0
T56E8 000:417.777 JLINK_WriteReg(CFBP, 0x00000000)
T56E8 000:417.784 - 0.010ms returns 0
T56E8 000:417.792 JLINK_SetBPEx(Addr = 0x20000000, Type = 0xFFFFFFF2)
T56E8 000:417.800 - 0.011ms returns 0x00000003
T56E8 000:417.809 JLINK_Go()
T56E8 000:417.827   CPU_ReadMem(4 bytes @ 0xE0001000)
T56E8 000:421.175 - 3.379ms
T56E8 000:421.199 JLINK_IsHalted()
T56E8 000:424.220   CPU_ReadMem(2 bytes @ 0x20000000)
T56E8 000:424.619 - 3.427ms returns TRUE
T56E8 000:424.638 JLINK_ReadReg(R15 (PC))
T56E8 000:424.651 - 0.018ms returns 0x20000000
T56E8 000:424.664 JLINK_ClrBPEx(BPHandle = 0x00000003)
T56E8 000:424.675 - 0.015ms returns 0x00
T56E8 000:424.687 JLINK_ReadReg(R0)
T56E8 000:424.698 - 0.015ms returns 0x00000000
T56E8 000:429.478 JLINK_WriteMem(0x20000000, 0x164 Bytes, ...)
T56E8 000:429.489   Data:  00 BE 0A E0 0D 78 2D 06 68 40 08 24 40 00 00 D3 ...
T56E8 000:429.507   CPU_WriteMem(356 bytes @ 0x20000000)
T56E8 000:434.079 - 4.609ms returns 0x164
T56E8 000:434.124 JLINK_HasError()
T56E8 000:434.137 JLINK_WriteReg(R0, 0x08000000)
T56E8 000:434.148 - 0.015ms returns 0
T56E8 000:434.158 JLINK_WriteReg(R1, 0x00B71B00)
T56E8 000:434.167 - 0.012ms returns 0
T56E8 000:434.177 JLINK_WriteReg(R2, 0x00000002)
T56E8 000:434.185 - 0.012ms returns 0
T56E8 000:434.195 JLINK_WriteReg(R3, 0x00000000)
T56E8 000:434.203 - 0.012ms returns 0
T56E8 000:434.213 JLINK_WriteReg(R4, 0x00000000)
T56E8 000:434.221 - 0.012ms returns 0
T56E8 000:434.231 JLINK_WriteReg(R5, 0x00000000)
T56E8 000:434.239 - 0.012ms returns 0
T56E8 000:434.249 JLINK_WriteReg(R6, 0x00000000)
T56E8 000:434.257 - 0.012ms returns 0
T56E8 000:434.267 JLINK_WriteReg(R7, 0x00000000)
T56E8 000:434.275 - 0.012ms returns 0
T56E8 000:434.285 JLINK_WriteReg(R8, 0x00000000)
T56E8 000:434.293 - 0.012ms returns 0
T56E8 000:434.303 JLINK_WriteReg(R9, 0x20000160)
T56E8 000:434.311 - 0.012ms returns 0
T56E8 000:434.321 JLINK_WriteReg(R10, 0x00000000)
T56E8 000:434.329 - 0.012ms returns 0
T56E8 000:434.339 JLINK_WriteReg(R11, 0x00000000)
T56E8 000:434.347 - 0.012ms returns 0
T56E8 000:434.357 JLINK_WriteReg(R12, 0x00000000)
T56E8 000:434.365 - 0.012ms returns 0
T56E8 000:434.375 JLINK_WriteReg(R13 (SP), 0x20001000)
T56E8 000:434.393 - 0.028ms returns 0
T56E8 000:434.410 JLINK_WriteReg(R14, 0x20000001)
T56E8 000:434.418 - 0.059ms returns 0
T56E8 000:434.560 JLINK_WriteReg(R15 (PC), 0x20000038)
T56E8 000:434.570 - 0.014ms returns 0
T56E8 000:434.580 JLINK_WriteReg(XPSR, 0x01000000)
T56E8 000:434.588 - 0.012ms returns 0
T56E8 000:434.598 JLINK_WriteReg(MSP, 0x20001000)
T56E8 000:434.606 - 0.012ms returns 0
T56E8 000:434.616 JLINK_WriteReg(PSP, 0x20001000)
T56E8 000:434.624 - 0.012ms returns 0
T56E8 000:434.634 JLINK_WriteReg(CFBP, 0x00000000)
T56E8 000:434.642 - 0.012ms returns 0
T56E8 000:434.652 JLINK_SetBPEx(Addr = 0x20000000, Type = 0xFFFFFFF2)
T56E8 000:434.665   CPU_ReadMem(2 bytes @ 0x20000000)
T56E8 000:435.083 - 0.438ms returns 0x00000004
T56E8 000:435.099 JLINK_Go()
T56E8 000:435.111   CPU_WriteMem(2 bytes @ 0x20000000)
T56E8 000:435.523   CPU_ReadMem(4 bytes @ 0xE0001000)
T56E8 000:438.745 - 3.653ms
T56E8 000:438.760 JLINK_IsHalted()
T56E8 000:441.761   CPU_ReadMem(2 bytes @ 0x20000000)
T56E8 000:442.157 - 3.402ms returns TRUE
T56E8 000:442.171 JLINK_ReadReg(R15 (PC))
T56E8 000:442.182 - 0.015ms returns 0x20000000
T56E8 000:442.193 JLINK_ClrBPEx(BPHandle = 0x00000004)
T56E8 000:442.201 - 0.012ms returns 0x00
T56E8 000:442.211 JLINK_ReadReg(R0)
T56E8 000:442.220 - 0.012ms returns 0x00000000
T56E8 000:442.594 JLINK_WriteMem(0x20000164, 0x29C Bytes, ...)
T56E8 000:442.607   Data:  60 17 00 20 1D 48 00 08 09 1E 00 08 0B 1E 00 08 ...
T56E8 000:442.627   CPU_WriteMem(668 bytes @ 0x20000164)
T56E8 000:450.658 - 8.076ms returns 0x29C
T56E8 000:450.683 JLINK_WriteMem(0x20000400, 0x164 Bytes, ...)
T56E8 000:450.694   Data:  F5 A0 8D E8 31 00 18 23 80 22 0A 21 14 20 02 F0 ...
T56E8 000:450.717   CPU_WriteMem(356 bytes @ 0x20000400)
T56E8 000:455.300 - 4.627ms returns 0x164
T56E8 000:455.321 JLINK_HasError()
T56E8 000:455.335 JLINK_WriteReg(R0, 0x08000000)
T56E8 000:455.348 - 0.018ms returns 0
T56E8 000:455.361 JLINK_WriteReg(R1, 0x00000400)
T56E8 000:455.371 - 0.015ms returns 0
T56E8 000:455.383 JLINK_WriteReg(R2, 0x20000164)
T56E8 000:455.394 - 0.015ms returns 0
T56E8 000:455.406 JLINK_WriteReg(R3, 0x00000000)
T56E8 000:455.416 - 0.014ms returns 0
T56E8 000:455.428 JLINK_WriteReg(R4, 0x00000000)
T56E8 000:455.438 - 0.014ms returns 0
T56E8 000:455.449 JLINK_WriteReg(R5, 0x00000000)
T56E8 000:455.459 - 0.014ms returns 0
T56E8 000:455.471 JLINK_WriteReg(R6, 0x00000000)
T56E8 000:455.481 - 0.014ms returns 0
T56E8 000:455.493 JLINK_WriteReg(R7, 0x00000000)
T56E8 000:455.503 - 0.014ms returns 0
T56E8 000:455.515 JLINK_WriteReg(R8, 0x00000000)
T56E8 000:455.525 - 0.014ms returns 0
T56E8 000:455.537 JLINK_WriteReg(R9, 0x20000160)
T56E8 000:455.547 - 0.014ms returns 0
T56E8 000:455.559 JLINK_WriteReg(R10, 0x00000000)
T56E8 000:455.569 - 0.014ms returns 0
T56E8 000:455.581 JLINK_WriteReg(R11, 0x00000000)
T56E8 000:455.591 - 0.014ms returns 0
T56E8 000:455.602 JLINK_WriteReg(R12, 0x00000000)
T56E8 000:455.612 - 0.014ms returns 0
T56E8 000:455.624 JLINK_WriteReg(R13 (SP), 0x20001000)
T56E8 000:455.635 - 0.015ms returns 0
T56E8 000:455.647 JLINK_WriteReg(R14, 0x20000001)
T56E8 000:455.656 - 0.014ms returns 0
T56E8 000:455.668 JLINK_WriteReg(R15 (PC), 0x200000F4)
T56E8 000:455.678 - 0.015ms returns 0
T56E8 000:455.690 JLINK_WriteReg(XPSR, 0x01000000)
T56E8 000:455.701 - 0.015ms returns 0
T56E8 000:455.713 JLINK_WriteReg(MSP, 0x20001000)
T56E8 000:455.722 - 0.014ms returns 0
T56E8 000:455.734 JLINK_WriteReg(PSP, 0x20001000)
T56E8 000:455.744 - 0.014ms returns 0
T56E8 000:455.756 JLINK_WriteReg(CFBP, 0x00000000)
T56E8 000:455.766 - 0.014ms returns 0
T56E8 000:455.778 JLINK_SetBPEx(Addr = 0x20000000, Type = 0xFFFFFFF2)
T56E8 000:455.789 - 0.015ms returns 0x00000005
T56E8 000:455.802 JLINK_Go()
T56E8 000:455.820   CPU_ReadMem(4 bytes @ 0xE0001000)
T56E8 000:459.190 - 3.400ms
T56E8 000:459.215 JLINK_IsHalted()
T56E8 000:459.579 - 0.369ms returns FALSE
T56E8 000:459.594 JLINK_HasError()
T56E8 000:470.071 JLINK_IsHalted()
T56E8 000:470.450 - 0.386ms returns FALSE
T56E8 000:470.468 JLINK_HasError()
T56E8 000:478.072 JLINK_IsHalted()
T56E8 000:481.098   CPU_ReadMem(2 bytes @ 0x20000000)
T56E8 000:481.627 - 3.560ms returns TRUE
T56E8 000:481.640 JLINK_ReadReg(R15 (PC))
T56E8 000:481.651 - 0.014ms returns 0x20000000
T56E8 000:481.660 JLINK_ClrBPEx(BPHandle = 0x00000005)
T56E8 000:481.668 - 0.011ms returns 0x00
T56E8 000:481.677 JLINK_ReadReg(R0)
T56E8 000:481.684 - 0.011ms returns 0x00000000
T56E8 000:482.218 JLINK_WriteMem(0x20000164, 0x29C Bytes, ...)
T56E8 000:482.230   Data:  02 96 31 46 30 46 02 F0 4D F9 0C 27 AB A0 CD E9 ...
T56E8 000:482.248   CPU_WriteMem(668 bytes @ 0x20000164)
T56E8 000:490.378 - 8.169ms returns 0x29C
T56E8 000:490.397 JLINK_WriteMem(0x20000400, 0x164 Bytes, ...)
T56E8 000:490.406   Data:  C4 DC C3 C5 CB F8 CF B5 CD B3 00 00 3D 3D 3D 20 ...
T56E8 000:490.422   CPU_WriteMem(356 bytes @ 0x20000400)
T56E8 000:494.986 - 4.598ms returns 0x164
T56E8 000:495.009 JLINK_HasError()
T56E8 000:495.025 JLINK_WriteReg(R0, 0x08000400)
T56E8 000:495.038 - 0.018ms returns 0
T56E8 000:495.052 JLINK_WriteReg(R1, 0x00000400)
T56E8 000:495.063 - 0.015ms returns 0
T56E8 000:495.079 JLINK_WriteReg(R2, 0x20000164)
T56E8 000:495.089 - 0.015ms returns 0
T56E8 000:495.103 JLINK_WriteReg(R3, 0x00000000)
T56E8 000:495.113 - 0.014ms returns 0
T56E8 000:495.126 JLINK_WriteReg(R4, 0x00000000)
T56E8 000:495.136 - 0.014ms returns 0
T56E8 000:495.150 JLINK_WriteReg(R5, 0x00000000)
T56E8 000:495.160 - 0.014ms returns 0
T56E8 000:495.174 JLINK_WriteReg(R6, 0x00000000)
T56E8 000:495.183 - 0.014ms returns 0
T56E8 000:495.197 JLINK_WriteReg(R7, 0x00000000)
T56E8 000:495.207 - 0.014ms returns 0
T56E8 000:495.220 JLINK_WriteReg(R8, 0x00000000)
T56E8 000:495.230 - 0.015ms returns 0
T56E8 000:495.244 JLINK_WriteReg(R9, 0x20000160)
T56E8 000:495.254 - 0.014ms returns 0
T56E8 000:495.267 JLINK_WriteReg(R10, 0x00000000)
T56E8 000:495.277 - 0.014ms returns 0
T56E8 000:495.291 JLINK_WriteReg(R11, 0x00000000)
T56E8 000:495.301 - 0.015ms returns 0
T56E8 000:495.314 JLINK_WriteReg(R12, 0x00000000)
T56E8 000:495.324 - 0.014ms returns 0
T56E8 000:495.338 JLINK_WriteReg(R13 (SP), 0x20001000)
T56E8 000:495.348 - 0.015ms returns 0
T56E8 000:495.362 JLINK_WriteReg(R14, 0x20000001)
T56E8 000:495.372 - 0.015ms returns 0
T56E8 000:495.385 JLINK_WriteReg(R15 (PC), 0x200000F4)
T56E8 000:495.396 - 0.015ms returns 0
T56E8 000:495.409 JLINK_WriteReg(XPSR, 0x01000000)
T56E8 000:495.419 - 0.015ms returns 0
T56E8 000:495.433 JLINK_WriteReg(MSP, 0x20001000)
T56E8 000:495.443 - 0.014ms returns 0
T56E8 000:495.456 JLINK_WriteReg(PSP, 0x20001000)
T56E8 000:495.466 - 0.014ms returns 0
T56E8 000:495.480 JLINK_WriteReg(CFBP, 0x00000000)
T56E8 000:495.490 - 0.014ms returns 0
T56E8 000:495.503 JLINK_SetBPEx(Addr = 0x20000000, Type = 0xFFFFFFF2)
T56E8 000:495.515 - 0.016ms returns 0x00000006
T56E8 000:495.529 JLINK_Go()
T56E8 000:495.547   CPU_ReadMem(4 bytes @ 0xE0001000)
T56E8 000:498.895 - 3.376ms
T56E8 000:498.918 JLINK_IsHalted()
T56E8 000:499.293 - 0.387ms returns FALSE
T56E8 000:499.320 JLINK_HasError()
T56E8 000:508.081 JLINK_IsHalted()
T56E8 000:508.475 - 0.401ms returns FALSE
T56E8 000:508.490 JLINK_HasError()
T56E8 000:514.082 JLINK_IsHalted()
T56E8 000:517.089   CPU_ReadMem(2 bytes @ 0x20000000)
T56E8 000:517.487 - 3.409ms returns TRUE
T56E8 000:517.497 JLINK_ReadReg(R15 (PC))
T56E8 000:517.505 - 0.011ms returns 0x20000000
T56E8 000:517.513 JLINK_ClrBPEx(BPHandle = 0x00000006)
T56E8 000:517.519 - 0.009ms returns 0x00
T56E8 000:517.526 JLINK_ReadReg(R0)
T56E8 000:517.533 - 0.008ms returns 0x00000000
T56E8 000:517.970 JLINK_WriteMem(0x20000164, 0x29C Bytes, ...)
T56E8 000:517.981   Data:  37 D1 07 2C 35 D2 DF E8 04 F0 04 0C 14 19 1E 27 ...
T56E8 000:517.995   CPU_WriteMem(668 bytes @ 0x20000164)
T56E8 000:526.021 - 8.060ms returns 0x29C
T56E8 000:526.044 JLINK_WriteMem(0x20000400, 0x164 Bytes, ...)
T56E8 000:526.055   Data:  6A 00 30 30 05 E0 01 F0 6E FA 4F F4 FA 70 7D E0 ...
T56E8 000:526.075   CPU_WriteMem(356 bytes @ 0x20000400)
T56E8 000:530.722 - 4.687ms returns 0x164
T56E8 000:530.746 JLINK_HasError()
T56E8 000:530.761 JLINK_WriteReg(R0, 0x08000800)
T56E8 000:530.779 - 0.121ms returns 0
T56E8 000:530.894 JLINK_WriteReg(R1, 0x00000400)
T56E8 000:530.905 - 0.016ms returns 0
T56E8 000:530.919 JLINK_WriteReg(R2, 0x20000164)
T56E8 000:530.929 - 0.015ms returns 0
T56E8 000:530.944 JLINK_WriteReg(R3, 0x00000000)
T56E8 000:530.954 - 0.014ms returns 0
T56E8 000:530.967 JLINK_WriteReg(R4, 0x00000000)
T56E8 000:530.977 - 0.023ms returns 0
T56E8 000:531.016 JLINK_WriteReg(R5, 0x00000000)
T56E8 000:531.036 - 0.024ms returns 0
T56E8 000:531.049 JLINK_WriteReg(R6, 0x00000000)
T56E8 000:531.059 - 0.014ms returns 0
T56E8 000:531.073 JLINK_WriteReg(R7, 0x00000000)
T56E8 000:531.084 - 0.016ms returns 0
T56E8 000:531.098 JLINK_WriteReg(R8, 0x00000000)
T56E8 000:531.108 - 0.015ms returns 0
T56E8 000:531.122 JLINK_WriteReg(R9, 0x20000160)
T56E8 000:531.132 - 0.014ms returns 0
T56E8 000:531.145 JLINK_WriteReg(R10, 0x00000000)
T56E8 000:531.155 - 0.015ms returns 0
T56E8 000:531.169 JLINK_WriteReg(R11, 0x00000000)
T56E8 000:531.179 - 0.014ms returns 0
T56E8 000:531.192 JLINK_WriteReg(R12, 0x00000000)
T56E8 000:531.202 - 0.014ms returns 0
T56E8 000:531.216 JLINK_WriteReg(R13 (SP), 0x20001000)
T56E8 000:531.226 - 0.015ms returns 0
T56E8 000:531.240 JLINK_WriteReg(R14, 0x20000001)
T56E8 000:531.250 - 0.014ms returns 0
T56E8 000:531.263 JLINK_WriteReg(R15 (PC), 0x200000F4)
T56E8 000:531.273 - 0.015ms returns 0
T56E8 000:531.287 JLINK_WriteReg(XPSR, 0x01000000)
T56E8 000:531.297 - 0.015ms returns 0
T56E8 000:531.310 JLINK_WriteReg(MSP, 0x20001000)
T56E8 000:531.320 - 0.014ms returns 0
T56E8 000:531.334 JLINK_WriteReg(PSP, 0x20001000)
T56E8 000:531.344 - 0.014ms returns 0
T56E8 000:531.357 JLINK_WriteReg(CFBP, 0x00000000)
T56E8 000:531.367 - 0.014ms returns 0
T56E8 000:531.381 JLINK_SetBPEx(Addr = 0x20000000, Type = 0xFFFFFFF2)
T56E8 000:531.392 - 0.016ms returns 0x00000007
T56E8 000:531.406 JLINK_Go()
T56E8 000:531.425   CPU_ReadMem(4 bytes @ 0xE0001000)
T56E8 000:534.700 - 3.302ms
T56E8 000:534.719 JLINK_IsHalted()
T56E8 000:535.091 - 0.378ms returns FALSE
T56E8 000:535.109 JLINK_HasError()
T56E8 000:542.088 JLINK_IsHalted()
T56E8 000:542.472 - 0.389ms returns FALSE
T56E8 000:542.486 JLINK_HasError()
T56E8 000:557.090 JLINK_IsHalted()
T56E8 000:560.131   CPU_ReadMem(2 bytes @ 0x20000000)
T56E8 000:560.530 - 3.447ms returns TRUE
T56E8 000:560.551 JLINK_ReadReg(R15 (PC))
T56E8 000:560.566 - 0.019ms returns 0x20000000
T56E8 000:560.580 JLINK_ClrBPEx(BPHandle = 0x00000007)
T56E8 000:560.591 - 0.016ms returns 0x00
T56E8 000:560.606 JLINK_ReadReg(R0)
T56E8 000:560.616 - 0.015ms returns 0x00000000
T56E8 000:561.359 JLINK_WriteMem(0x20000164, 0x29C Bytes, ...)
T56E8 000:561.377   Data:  83 B9 3E B5 01 F0 BD F9 10 20 5A A1 CD E9 00 10 ...
T56E8 000:561.401   CPU_WriteMem(668 bytes @ 0x20000164)
T56E8 000:569.438 - 8.088ms returns 0x29C
T56E8 000:569.456 JLINK_WriteMem(0x20000400, 0x164 Bytes, ...)
T56E8 000:569.466   Data:  B4 E0 DD A0 CD E9 00 07 64 1C E4 B2 0C 23 80 22 ...
T56E8 000:569.483   CPU_WriteMem(356 bytes @ 0x20000400)
T56E8 000:574.056 - 4.608ms returns 0x164
T56E8 000:574.075 JLINK_HasError()
T56E8 000:574.090 JLINK_WriteReg(R0, 0x08000C00)
T56E8 000:574.104 - 0.018ms returns 0
T56E8 000:574.116 JLINK_WriteReg(R1, 0x00000400)
T56E8 000:574.127 - 0.015ms returns 0
T56E8 000:574.139 JLINK_WriteReg(R2, 0x20000164)
T56E8 000:574.149 - 0.015ms returns 0
T56E8 000:574.162 JLINK_WriteReg(R3, 0x00000000)
T56E8 000:574.172 - 0.015ms returns 0
T56E8 000:574.184 JLINK_WriteReg(R4, 0x00000000)
T56E8 000:574.194 - 0.014ms returns 0
T56E8 000:574.206 JLINK_WriteReg(R5, 0x00000000)
T56E8 000:574.216 - 0.014ms returns 0
T56E8 000:574.228 JLINK_WriteReg(R6, 0x00000000)
T56E8 000:574.238 - 0.014ms returns 0
T56E8 000:574.250 JLINK_WriteReg(R7, 0x00000000)
T56E8 000:574.260 - 0.014ms returns 0
T56E8 000:574.272 JLINK_WriteReg(R8, 0x00000000)
T56E8 000:574.282 - 0.014ms returns 0
T56E8 000:574.294 JLINK_WriteReg(R9, 0x20000160)
T56E8 000:574.303 - 0.014ms returns 0
T56E8 000:574.315 JLINK_WriteReg(R10, 0x00000000)
T56E8 000:574.331 - 0.118ms returns 0
T56E8 000:574.442 JLINK_WriteReg(R11, 0x00000000)
T56E8 000:574.452 - 0.015ms returns 0
T56E8 000:574.464 JLINK_WriteReg(R12, 0x00000000)
T56E8 000:574.474 - 0.014ms returns 0
T56E8 000:574.486 JLINK_WriteReg(R13 (SP), 0x20001000)
T56E8 000:574.497 - 0.015ms returns 0
T56E8 000:574.509 JLINK_WriteReg(R14, 0x20000001)
T56E8 000:574.519 - 0.014ms returns 0
T56E8 000:574.532 JLINK_WriteReg(R15 (PC), 0x200000F4)
T56E8 000:574.544 - 0.017ms returns 0
T56E8 000:574.556 JLINK_WriteReg(XPSR, 0x01000000)
T56E8 000:574.564 - 0.012ms returns 0
T56E8 000:574.574 JLINK_WriteReg(MSP, 0x20001000)
T56E8 000:574.582 - 0.012ms returns 0
T56E8 000:574.592 JLINK_WriteReg(PSP, 0x20001000)
T56E8 000:574.600 - 0.012ms returns 0
T56E8 000:574.610 JLINK_WriteReg(CFBP, 0x00000000)
T56E8 000:574.618 - 0.012ms returns 0
T56E8 000:574.628 JLINK_SetBPEx(Addr = 0x20000000, Type = 0xFFFFFFF2)
T56E8 000:574.638 - 0.013ms returns 0x00000008
T56E8 000:574.647 JLINK_Go()
T56E8 000:574.663   CPU_ReadMem(4 bytes @ 0xE0001000)
T56E8 000:577.924 - 3.286ms
T56E8 000:577.944 JLINK_IsHalted()
T56E8 000:578.377 - 0.440ms returns FALSE
T56E8 000:578.393 JLINK_HasError()
T56E8 000:585.097 JLINK_IsHalted()
T56E8 000:585.468 - 0.376ms returns FALSE
T56E8 000:585.484 JLINK_HasError()
T56E8 000:597.099 JLINK_IsHalted()
T56E8 000:600.106   CPU_ReadMem(2 bytes @ 0x20000000)
T56E8 000:600.506 - 3.414ms returns TRUE
T56E8 000:600.523 JLINK_ReadReg(R15 (PC))
T56E8 000:600.536 - 0.018ms returns 0x20000000
T56E8 000:600.549 JLINK_ClrBPEx(BPHandle = 0x00000008)
T56E8 000:600.559 - 0.015ms returns 0x00
T56E8 000:600.572 JLINK_ReadReg(R0)
T56E8 000:600.582 - 0.015ms returns 0x00000000
T56E8 000:601.314 JLINK_WriteMem(0x20000164, 0x29C Bytes, ...)
T56E8 000:601.331   Data:  FF F7 E1 FD 00 F0 BD FF 4F F4 C8 70 03 F0 F2 FA ...
T56E8 000:601.354   CPU_WriteMem(668 bytes @ 0x20000164)
T56E8 000:609.529 - 8.225ms returns 0x29C
T56E8 000:609.549 JLINK_WriteMem(0x20000400, 0x164 Bytes, ...)
T56E8 000:609.560   Data:  C8 EB B4 A2 B4 E6 49 44 3A 20 20 20 20 20 20 20 ...
T56E8 000:609.580   CPU_WriteMem(356 bytes @ 0x20000400)
T56E8 000:614.152 - 4.613ms returns 0x164
T56E8 000:614.176 JLINK_HasError()
T56E8 000:614.191 JLINK_WriteReg(R0, 0x08001000)
T56E8 000:614.205 - 0.018ms returns 0
T56E8 000:614.219 JLINK_WriteReg(R1, 0x00000400)
T56E8 000:614.230 - 0.015ms returns 0
T56E8 000:614.243 JLINK_WriteReg(R2, 0x20000164)
T56E8 000:614.254 - 0.015ms returns 0
T56E8 000:614.267 JLINK_WriteReg(R3, 0x00000000)
T56E8 000:614.277 - 0.015ms returns 0
T56E8 000:614.291 JLINK_WriteReg(R4, 0x00000000)
T56E8 000:614.301 - 0.014ms returns 0
T56E8 000:614.314 JLINK_WriteReg(R5, 0x00000000)
T56E8 000:614.324 - 0.014ms returns 0
T56E8 000:614.338 JLINK_WriteReg(R6, 0x00000000)
T56E8 000:614.348 - 0.014ms returns 0
T56E8 000:614.361 JLINK_WriteReg(R7, 0x00000000)
T56E8 000:614.371 - 0.014ms returns 0
T56E8 000:614.385 JLINK_WriteReg(R8, 0x00000000)
T56E8 000:614.395 - 0.014ms returns 0
T56E8 000:614.408 JLINK_WriteReg(R9, 0x20000160)
T56E8 000:614.418 - 0.014ms returns 0
T56E8 000:614.432 JLINK_WriteReg(R10, 0x00000000)
T56E8 000:614.442 - 0.015ms returns 0
T56E8 000:614.455 JLINK_WriteReg(R11, 0x00000000)
T56E8 000:614.465 - 0.015ms returns 0
T56E8 000:614.479 JLINK_WriteReg(R12, 0x00000000)
T56E8 000:614.489 - 0.014ms returns 0
T56E8 000:614.502 JLINK_WriteReg(R13 (SP), 0x20001000)
T56E8 000:614.513 - 0.015ms returns 0
T56E8 000:614.527 JLINK_WriteReg(R14, 0x20000001)
T56E8 000:614.537 - 0.014ms returns 0
T56E8 000:614.550 JLINK_WriteReg(R15 (PC), 0x200000F4)
T56E8 000:614.561 - 0.015ms returns 0
T56E8 000:614.574 JLINK_WriteReg(XPSR, 0x01000000)
T56E8 000:614.584 - 0.015ms returns 0
T56E8 000:614.598 JLINK_WriteReg(MSP, 0x20001000)
T56E8 000:614.608 - 0.015ms returns 0
T56E8 000:614.622 JLINK_WriteReg(PSP, 0x20001000)
T56E8 000:614.633 - 0.015ms returns 0
T56E8 000:614.646 JLINK_WriteReg(CFBP, 0x00000000)
T56E8 000:614.656 - 0.015ms returns 0
T56E8 000:614.670 JLINK_SetBPEx(Addr = 0x20000000, Type = 0xFFFFFFF2)
T56E8 000:614.685 - 0.112ms returns 0x00000009
T56E8 000:614.793 JLINK_Go()
T56E8 000:614.812   CPU_ReadMem(4 bytes @ 0xE0001000)
T56E8 000:618.121 - 3.340ms
T56E8 000:618.148 JLINK_IsHalted()
T56E8 000:618.525 - 0.385ms returns FALSE
T56E8 000:618.545 JLINK_HasError()
T56E8 000:628.108 JLINK_IsHalted()
T56E8 000:628.482 - 0.378ms returns FALSE
T56E8 000:628.494 JLINK_HasError()
T56E8 000:635.109 JLINK_IsHalted()
T56E8 000:638.134   CPU_ReadMem(2 bytes @ 0x20000000)
T56E8 000:638.522 - 3.419ms returns TRUE
T56E8 000:638.537 JLINK_ReadReg(R15 (PC))
T56E8 000:638.549 - 0.016ms returns 0x20000000
T56E8 000:638.560 JLINK_ClrBPEx(BPHandle = 0x00000009)
T56E8 000:638.569 - 0.013ms returns 0x00
T56E8 000:638.579 JLINK_ReadReg(R0)
T56E8 000:638.588 - 0.012ms returns 0x00000000
T56E8 000:639.259 JLINK_WriteMem(0x20000164, 0x29C Bytes, ...)
T56E8 000:639.273   Data:  9A 42 04 D1 76 1C B6 B2 06 2E 04 D0 00 E0 00 26 ...
T56E8 000:639.294   CPU_WriteMem(668 bytes @ 0x20000164)
T56E8 000:647.384 - 8.136ms returns 0x29C
T56E8 000:647.410 JLINK_WriteMem(0x20000400, 0x164 Bytes, ...)
T56E8 000:647.421   Data:  0A 2E BB D3 51 46 11 F8 4E 0F 40 1C C0 B2 08 70 ...
T56E8 000:647.443   CPU_WriteMem(356 bytes @ 0x20000400)
T56E8 000:652.090 - 4.687ms returns 0x164
T56E8 000:652.111 JLINK_HasError()
T56E8 000:652.132 JLINK_WriteReg(R0, 0x08001400)
T56E8 000:652.145 - 0.017ms returns 0
T56E8 000:652.160 JLINK_WriteReg(R1, 0x00000400)
T56E8 000:652.170 - 0.015ms returns 0
T56E8 000:652.184 JLINK_WriteReg(R2, 0x20000164)
T56E8 000:652.194 - 0.015ms returns 0
T56E8 000:652.208 JLINK_WriteReg(R3, 0x00000000)
T56E8 000:652.218 - 0.015ms returns 0
T56E8 000:652.232 JLINK_WriteReg(R4, 0x00000000)
T56E8 000:652.242 - 0.015ms returns 0
T56E8 000:652.255 JLINK_WriteReg(R5, 0x00000000)
T56E8 000:652.265 - 0.014ms returns 0
T56E8 000:652.279 JLINK_WriteReg(R6, 0x00000000)
T56E8 000:652.289 - 0.014ms returns 0
T56E8 000:652.302 JLINK_WriteReg(R7, 0x00000000)
T56E8 000:652.312 - 0.014ms returns 0
T56E8 000:652.326 JLINK_WriteReg(R8, 0x00000000)
T56E8 000:652.336 - 0.015ms returns 0
T56E8 000:652.350 JLINK_WriteReg(R9, 0x20000160)
T56E8 000:652.360 - 0.014ms returns 0
T56E8 000:652.373 JLINK_WriteReg(R10, 0x00000000)
T56E8 000:652.383 - 0.015ms returns 0
T56E8 000:652.397 JLINK_WriteReg(R11, 0x00000000)
T56E8 000:652.407 - 0.015ms returns 0
T56E8 000:652.421 JLINK_WriteReg(R12, 0x00000000)
T56E8 000:652.431 - 0.014ms returns 0
T56E8 000:652.445 JLINK_WriteReg(R13 (SP), 0x20001000)
T56E8 000:652.455 - 0.015ms returns 0
T56E8 000:652.469 JLINK_WriteReg(R14, 0x20000001)
T56E8 000:652.479 - 0.015ms returns 0
T56E8 000:652.493 JLINK_WriteReg(R15 (PC), 0x200000F4)
T56E8 000:652.503 - 0.015ms returns 0
T56E8 000:652.517 JLINK_WriteReg(XPSR, 0x01000000)
T56E8 000:652.527 - 0.015ms returns 0
T56E8 000:652.541 JLINK_WriteReg(MSP, 0x20001000)
T56E8 000:652.551 - 0.015ms returns 0
T56E8 000:652.564 JLINK_WriteReg(PSP, 0x20001000)
T56E8 000:652.575 - 0.015ms returns 0
T56E8 000:652.588 JLINK_WriteReg(CFBP, 0x00000000)
T56E8 000:652.598 - 0.015ms returns 0
T56E8 000:652.612 JLINK_SetBPEx(Addr = 0x20000000, Type = 0xFFFFFFF2)
T56E8 000:652.624 - 0.016ms returns 0x0000000A
T56E8 000:652.638 JLINK_Go()
T56E8 000:652.656   CPU_ReadMem(4 bytes @ 0xE0001000)
T56E8 000:655.965 - 3.337ms
T56E8 000:655.988 JLINK_IsHalted()
T56E8 000:656.378 - 0.396ms returns FALSE
T56E8 000:656.396 JLINK_HasError()
T56E8 000:659.117 JLINK_IsHalted()
T56E8 000:659.495 - 0.386ms returns FALSE
T56E8 000:659.512 JLINK_HasError()
T56E8 000:661.116 JLINK_IsHalted()
T56E8 000:661.489 - 0.379ms returns FALSE
T56E8 000:661.504 JLINK_HasError()
T56E8 000:663.116 JLINK_IsHalted()
T56E8 000:663.488 - 0.377ms returns FALSE
T56E8 000:663.504 JLINK_HasError()
T56E8 000:665.116 JLINK_IsHalted()
T56E8 000:665.489 - 0.379ms returns FALSE
T56E8 000:665.504 JLINK_HasError()
T56E8 000:667.114 JLINK_IsHalted()
T56E8 000:667.473 - 0.363ms returns FALSE
T56E8 000:667.484 JLINK_HasError()
T56E8 000:669.117 JLINK_IsHalted()
T56E8 000:672.226   CPU_ReadMem(2 bytes @ 0x20000000)
T56E8 000:672.622 - 3.511ms returns TRUE
T56E8 000:672.639 JLINK_ReadReg(R15 (PC))
T56E8 000:672.652 - 0.017ms returns 0x20000000
T56E8 000:672.664 JLINK_ClrBPEx(BPHandle = 0x0000000A)
T56E8 000:672.675 - 0.015ms returns 0x00
T56E8 000:672.687 JLINK_ReadReg(R0)
T56E8 000:672.698 - 0.015ms returns 0x00000000
T56E8 000:673.415 JLINK_WriteMem(0x20000164, 0x29C Bytes, ...)
T56E8 000:673.433   Data:  70 B5 E4 4E 50 22 E2 49 30 46 02 F0 98 F8 E0 4C ...
T56E8 000:673.456   CPU_WriteMem(668 bytes @ 0x20000164)
T56E8 000:681.631 - 8.225ms returns 0x29C
T56E8 000:681.653 JLINK_WriteMem(0x20000400, 0x164 Bytes, ...)
T56E8 000:681.664   Data:  48 B3 00 22 30 21 38 20 00 F0 5D FE F2 E7 00 F0 ...
T56E8 000:681.684   CPU_WriteMem(356 bytes @ 0x20000400)
T56E8 000:686.270 - 4.626ms returns 0x164
T56E8 000:686.292 JLINK_HasError()
T56E8 000:686.307 JLINK_WriteReg(R0, 0x08001800)
T56E8 000:686.319 - 0.018ms returns 0
T56E8 000:686.334 JLINK_WriteReg(R1, 0x00000400)
T56E8 000:686.344 - 0.015ms returns 0
T56E8 000:686.358 JLINK_WriteReg(R2, 0x20000164)
T56E8 000:686.368 - 0.015ms returns 0
T56E8 000:686.382 JLINK_WriteReg(R3, 0x00000000)
T56E8 000:686.392 - 0.015ms returns 0
T56E8 000:686.406 JLINK_WriteReg(R4, 0x00000000)
T56E8 000:686.416 - 0.014ms returns 0
T56E8 000:686.429 JLINK_WriteReg(R5, 0x00000000)
T56E8 000:686.439 - 0.015ms returns 0
T56E8 000:686.453 JLINK_WriteReg(R6, 0x00000000)
T56E8 000:686.463 - 0.015ms returns 0
T56E8 000:686.476 JLINK_WriteReg(R7, 0x00000000)
T56E8 000:686.486 - 0.014ms returns 0
T56E8 000:686.500 JLINK_WriteReg(R8, 0x00000000)
T56E8 000:686.510 - 0.014ms returns 0
T56E8 000:686.524 JLINK_WriteReg(R9, 0x20000160)
T56E8 000:686.534 - 0.015ms returns 0
T56E8 000:686.547 JLINK_WriteReg(R10, 0x00000000)
T56E8 000:686.557 - 0.014ms returns 0
T56E8 000:686.571 JLINK_WriteReg(R11, 0x00000000)
T56E8 000:686.581 - 0.015ms returns 0
T56E8 000:686.594 JLINK_WriteReg(R12, 0x00000000)
T56E8 000:686.604 - 0.014ms returns 0
T56E8 000:686.618 JLINK_WriteReg(R13 (SP), 0x20001000)
T56E8 000:686.628 - 0.015ms returns 0
T56E8 000:686.642 JLINK_WriteReg(R14, 0x20000001)
T56E8 000:686.652 - 0.014ms returns 0
T56E8 000:686.665 JLINK_WriteReg(R15 (PC), 0x200000F4)
T56E8 000:686.676 - 0.015ms returns 0
T56E8 000:686.689 JLINK_WriteReg(XPSR, 0x01000000)
T56E8 000:686.699 - 0.015ms returns 0
T56E8 000:686.713 JLINK_WriteReg(MSP, 0x20001000)
T56E8 000:686.723 - 0.014ms returns 0
T56E8 000:686.737 JLINK_WriteReg(PSP, 0x20001000)
T56E8 000:686.747 - 0.015ms returns 0
T56E8 000:686.760 JLINK_WriteReg(CFBP, 0x00000000)
T56E8 000:686.770 - 0.014ms returns 0
T56E8 000:686.784 JLINK_SetBPEx(Addr = 0x20000000, Type = 0xFFFFFFF2)
T56E8 000:686.795 - 0.016ms returns 0x0000000B
T56E8 000:686.809 JLINK_Go()
T56E8 000:686.827   CPU_ReadMem(4 bytes @ 0xE0001000)
T56E8 000:690.179 - 3.376ms
T56E8 000:690.194 JLINK_IsHalted()
T56E8 000:690.551 - 0.361ms returns FALSE
T56E8 000:690.563 JLINK_HasError()
T56E8 000:692.123 JLINK_IsHalted()
T56E8 000:692.494 - 0.377ms returns FALSE
T56E8 000:692.509 JLINK_HasError()
T56E8 000:694.124 JLINK_IsHalted()
T56E8 000:694.502 - 0.384ms returns FALSE
T56E8 000:694.517 JLINK_HasError()
T56E8 000:696.125 JLINK_IsHalted()
T56E8 000:696.500 - 0.381ms returns FALSE
T56E8 000:696.515 JLINK_HasError()
T56E8 000:698.124 JLINK_IsHalted()
T56E8 000:698.494 - 0.376ms returns FALSE
T56E8 000:698.510 JLINK_HasError()
T56E8 000:700.129 JLINK_IsHalted()
T56E8 000:700.531 - 0.411ms returns FALSE
T56E8 000:700.551 JLINK_HasError()
T56E8 000:702.124 JLINK_IsHalted()
T56E8 000:705.142   CPU_ReadMem(2 bytes @ 0x20000000)
T56E8 000:705.554 - 3.437ms returns TRUE
T56E8 000:705.571 JLINK_ReadReg(R15 (PC))
T56E8 000:705.583 - 0.017ms returns 0x20000000
T56E8 000:705.596 JLINK_ClrBPEx(BPHandle = 0x0000000B)
T56E8 000:705.606 - 0.015ms returns 0x00
T56E8 000:705.618 JLINK_ReadReg(R0)
T56E8 000:705.629 - 0.015ms returns 0x00000000
T56E8 000:706.327 JLINK_WriteMem(0x20000164, 0x29C Bytes, ...)
T56E8 000:706.348   Data:  63 6F 6E 6E 65 63 74 20 74 6F 20 61 73 36 30 38 ...
T56E8 000:706.449   CPU_WriteMem(668 bytes @ 0x20000164)
T56E8 000:714.486 - 8.167ms returns 0x29C
T56E8 000:714.503 JLINK_WriteMem(0x20000400, 0x164 Bytes, ...)
T56E8 000:714.512   Data:  03 11 12 1D 51 5C 02 68 CA 40 02 60 10 BD 00 00 ...
T56E8 000:714.528   CPU_WriteMem(356 bytes @ 0x20000400)
T56E8 000:719.092 - 4.596ms returns 0x164
T56E8 000:719.108 JLINK_HasError()
T56E8 000:719.150 JLINK_WriteReg(R0, 0x08001C00)
T56E8 000:719.160 - 0.013ms returns 0
T56E8 000:719.169 JLINK_WriteReg(R1, 0x00000400)
T56E8 000:719.176 - 0.010ms returns 0
T56E8 000:719.185 JLINK_WriteReg(R2, 0x20000164)
T56E8 000:719.191 - 0.010ms returns 0
T56E8 000:719.200 JLINK_WriteReg(R3, 0x00000000)
T56E8 000:719.207 - 0.010ms returns 0
T56E8 000:719.215 JLINK_WriteReg(R4, 0x00000000)
T56E8 000:719.221 - 0.010ms returns 0
T56E8 000:719.229 JLINK_WriteReg(R5, 0x00000000)
T56E8 000:719.236 - 0.010ms returns 0
T56E8 000:719.244 JLINK_WriteReg(R6, 0x00000000)
T56E8 000:719.251 - 0.010ms returns 0
T56E8 000:719.259 JLINK_WriteReg(R7, 0x00000000)
T56E8 000:719.266 - 0.009ms returns 0
T56E8 000:719.274 JLINK_WriteReg(R8, 0x00000000)
T56E8 000:719.281 - 0.010ms returns 0
T56E8 000:719.289 JLINK_WriteReg(R9, 0x20000160)
T56E8 000:719.296 - 0.010ms returns 0
T56E8 000:719.304 JLINK_WriteReg(R10, 0x00000000)
T56E8 000:719.311 - 0.010ms returns 0
T56E8 000:719.319 JLINK_WriteReg(R11, 0x00000000)
T56E8 000:719.326 - 0.010ms returns 0
T56E8 000:719.334 JLINK_WriteReg(R12, 0x00000000)
T56E8 000:719.341 - 0.010ms returns 0
T56E8 000:719.348 JLINK_WriteReg(R13 (SP), 0x20001000)
T56E8 000:719.356 - 0.010ms returns 0
T56E8 000:719.364 JLINK_WriteReg(R14, 0x20000001)
T56E8 000:719.371 - 0.010ms returns 0
T56E8 000:719.379 JLINK_WriteReg(R15 (PC), 0x200000F4)
T56E8 000:719.386 - 0.010ms returns 0
T56E8 000:719.394 JLINK_WriteReg(XPSR, 0x01000000)
T56E8 000:719.401 - 0.010ms returns 0
T56E8 000:719.409 JLINK_WriteReg(MSP, 0x20001000)
T56E8 000:719.416 - 0.010ms returns 0
T56E8 000:719.424 JLINK_WriteReg(PSP, 0x20001000)
T56E8 000:719.431 - 0.010ms returns 0
T56E8 000:719.439 JLINK_WriteReg(CFBP, 0x00000000)
T56E8 000:719.446 - 0.010ms returns 0
T56E8 000:719.454 JLINK_SetBPEx(Addr = 0x20000000, Type = 0xFFFFFFF2)
T56E8 000:719.462 - 0.011ms returns 0x0000000C
T56E8 000:719.470 JLINK_Go()
T56E8 000:719.483   CPU_ReadMem(4 bytes @ 0xE0001000)
T56E8 000:722.721 - 3.258ms
T56E8 000:722.738 JLINK_IsHalted()
T56E8 000:723.106 - 0.374ms returns FALSE
T56E8 000:723.124 JLINK_HasError()
T56E8 000:725.130 JLINK_IsHalted()
T56E8 000:725.521 - 0.397ms returns FALSE
T56E8 000:725.537 JLINK_HasError()
T56E8 000:727.130 JLINK_IsHalted()
T56E8 000:727.500 - 0.375ms returns FALSE
T56E8 000:727.515 JLINK_HasError()
T56E8 000:729.131 JLINK_IsHalted()
T56E8 000:729.501 - 0.376ms returns FALSE
T56E8 000:729.516 JLINK_HasError()
T56E8 000:731.129 JLINK_IsHalted()
T56E8 000:731.496 - 0.371ms returns FALSE
T56E8 000:731.508 JLINK_HasError()
T56E8 000:733.130 JLINK_IsHalted()
T56E8 000:733.496 - 0.372ms returns FALSE
T56E8 000:733.510 JLINK_HasError()
T56E8 000:735.130 JLINK_IsHalted()
T56E8 000:738.119   CPU_ReadMem(2 bytes @ 0x20000000)
T56E8 000:738.510 - 3.386ms returns TRUE
T56E8 000:738.526 JLINK_ReadReg(R15 (PC))
T56E8 000:738.536 - 0.014ms returns 0x20000000
T56E8 000:738.547 JLINK_ClrBPEx(BPHandle = 0x0000000C)
T56E8 000:738.555 - 0.012ms returns 0x00
T56E8 000:738.566 JLINK_ReadReg(R0)
T56E8 000:738.574 - 0.012ms returns 0x00000000
T56E8 000:739.198 JLINK_WriteMem(0x20000164, 0x29C Bytes, ...)
T56E8 000:739.212   Data:  2D E9 F0 41 1E 46 94 46 0F 46 05 46 DD F8 18 80 ...
T56E8 000:739.231   CPU_WriteMem(668 bytes @ 0x20000164)
T56E8 000:747.384 - 8.196ms returns 0x29C
T56E8 000:747.407 JLINK_WriteMem(0x20000400, 0x164 Bytes, ...)
T56E8 000:747.417   Data:  81 20 FF F7 13 FE 00 21 EF 20 FF F7 0F FE 00 21 ...
T56E8 000:747.438   CPU_WriteMem(356 bytes @ 0x20000400)
T56E8 000:752.031 - 4.634ms returns 0x164
T56E8 000:752.059 JLINK_HasError()
T56E8 000:752.179 JLINK_WriteReg(R0, 0x08002000)
T56E8 000:752.193 - 0.019ms returns 0
T56E8 000:752.207 JLINK_WriteReg(R1, 0x00000400)
T56E8 000:752.217 - 0.015ms returns 0
T56E8 000:752.231 JLINK_WriteReg(R2, 0x20000164)
T56E8 000:752.241 - 0.014ms returns 0
T56E8 000:752.255 JLINK_WriteReg(R3, 0x00000000)
T56E8 000:752.265 - 0.014ms returns 0
T56E8 000:752.278 JLINK_WriteReg(R4, 0x00000000)
T56E8 000:752.288 - 0.015ms returns 0
T56E8 000:752.302 JLINK_WriteReg(R5, 0x00000000)
T56E8 000:752.312 - 0.015ms returns 0
T56E8 000:752.325 JLINK_WriteReg(R6, 0x00000000)
T56E8 000:752.335 - 0.015ms returns 0
T56E8 000:752.349 JLINK_WriteReg(R7, 0x00000000)
T56E8 000:752.360 - 0.015ms returns 0
T56E8 000:752.373 JLINK_WriteReg(R8, 0x00000000)
T56E8 000:752.384 - 0.015ms returns 0
